
T2184 000:667 SEGGER J-Link V4.90 Log File (0001ms, 0275ms total)
T2184 000:667 DLL Compiled: Jul 28 2014 10:35:20 (0001ms, 0275ms total)
T2184 000:667 Logging started @ 2019-07-26 21:46 (0001ms, 0275ms total)
T2184 000:668 JLINK_SetWarnOutHandler(...) (0000ms, 0275ms total)
T2184 000:668 JLINK_OpenEx(...)
Firmware: J-Link OB-STM32F072-CortexM compiled Mar  8 2020 11:15:54
Hardware: V1.00
Feature(s): GDB, RDI, FlashBP, FlashDL, JFlash, RDDI  returns O.K. (0270ms, 0545ms total)
T2184 000:938 JLINK_SetErrorOutHandler(...) (0000ms, 0545ms total)
T2184 000:938 JLINK_ExecCommand("ProjectFile = "D:\file\job\afu\AD29\firmware\V3.0\USER\JLinkSettings.ini"", ...)  returns 0x00 (0002ms, 0547ms total)
T2184 000:940 JLINK_ExecCommand("Device = STM32F103ZE", ...)Device "STM32F103ZE" selected (512 KB flash, 64 KB RAM).  returns 0x00 (0001ms, 0548ms total)
T2184 000:941 JLINK_ExecCommand("DisableConnectionTimeout", ...)  returns 0x01 (0000ms, 0548ms total)
T2184 000:941 JLINK_GetHardwareVersion()  returns 0x2710 (0001ms, 0549ms total)
T2184 000:942 JLINK_GetDLLVersion()  returns 49000 (0000ms, 0549ms total)
T2184 000:942 JLINK_GetFirmwareString(...) (0000ms, 0549ms total)
T2184 000:943 JLINK_GetDLLVersion()  returns 49000 (0000ms, 0549ms total)
T2184 000:943 JLINK_GetCompileDateTime() (0000ms, 0549ms total)
T2184 000:943 JLINK_GetFirmwareString(...) (0000ms, 0549ms total)
T2184 000:944 JLINK_GetHardwareVersion()  returns 0x2710 (0000ms, 0549ms total)
T2184 000:945 JLINK_TIF_Select(JLINKARM_TIF_SWD)  returns 0x00 (0002ms, 0551ms total)
T2184 000:947 JLINK_SetSpeed(5000) (0000ms, 0551ms total)
T2184 000:947 JLINK_GetId() >0x108 TIF>Found SWD-DP with ID 0x1BA01477 >0x0D TIF> >0x28 TIF> >0x0D TIF> >0x28 TIF> >0x0D TIF> >0x21 TIF> >0x0D TIF> >0x28 TIF> >0x0D TIF> >0x28 TIF> >0x0D TIF> >0x28 TIF> >0x0D TIF> >0x21 TIF> >0x0D TIF> >0x21 TIF> >0x0D TIF> >0x28 TIF> >0x0D TIF> >0x21 TIF> >0x0D TIF> >0x21 TIF> >0x108 TIF>Found SWD-DP with ID 0x1BA01477 >0x0D TIF> >0x21 TIF> >0x0D TIF> >0x28 TIF> >0x0D TIF> >0x28 TIF> >0x0D TIF> >0x21 TIF> >0x0D TIF> >0x28 TIF> >0x0D TIF> >0x21 TIF> >0x0D TIF> >0x21 TIF>
 >0x0D TIF> >0x21 TIF> >0x0D TIF> >0x21 TIF> >0x0D TIF> >0x28 TIF> >0x0D TIF> >0x28 TIF> >0x0D TIF> >0x21 TIF> >0x0D TIF> >0x28 TIF> >0x0D TIF> >0x28 TIF> >0x0D TIF> >0x28 TIF> >0x0D TIF> >0x21 TIF> >0x0D TIF> >0x21 TIF> >0x0D TIF> >0x28 TIF> >0x0D TIF> >0x21 TIF> >0x0D TIF> >0x21 TIF>Found Cortex-M3 r1p1, Little endian. -- CPU_WriteMem(4 bytes @ 0xE0002000) -- CPU_ReadMem(4 bytes @ 0xE000EDF0) -- CPU_ReadMem(4 bytes @ 0xE0002000)FPUnit: 6 code (BP) slots and 2 literal slots
 -- CPU_ReadMem(4 bytes @ 0xE000EDFC) -- CPU_ReadMem(4 bytes @ 0xE0001000) -- CPU_WriteMem(4 bytes @ 0xE0001000) -- CPU_ReadMem(4 bytes @ 0xE00FF010)TPIU fitted. -- CPU_ReadMem(4 bytes @ 0xE00FF014)ETM fitted. -- CPU_ReadMem(4 bytes @ 0xE00FF018) >0x0D TIF> >0x21 TIF>  returns 0x1BA01477 (0053ms, 0604ms total)
T2184 001:000 JLINK_GetDLLVersion()  returns 49000 (0000ms, 0604ms total)
T2184 001:000 JLINK_CORE_GetFound()  returns 0x30000FF (0000ms, 0604ms total)
T2184 001:000 JLINK_ReadMem (0xE00FF000, 0x0020 Bytes, ...) -- CPU is running -- CPU_ReadMem(32 bytes @ 0xE00FF000) - Data: 03 F0 F0 FF 03 20 F0 FF 03 30 F0 FF 03 10 F0 FF ...  returns 0x00 (0002ms, 0606ms total)
T2184 001:002 JLINK_ReadMem (0xE000EFF0, 0x0010 Bytes, ...) -- CPU is running -- CPU_ReadMem(16 bytes @ 0xE000EFF0) - Data: 0D 00 00 00 E0 00 00 00 05 00 00 00 B1 00 00 00  returns 0x00 (0001ms, 0607ms total)
T2184 001:003 JLINK_ReadMem (0xE000EFD0, 0x0020 Bytes, ...) -- CPU is running -- CPU_ReadMem(32 bytes @ 0xE000EFD0) - Data: 04 00 00 00 00 00 00 00 00 00 00 00 00 00 00 00 ...  returns 0x00 (0001ms, 0608ms total)
T2184 001:004 JLINK_ReadMem (0xE0001FF0, 0x0010 Bytes, ...) -- CPU is running -- CPU_ReadMem(16 bytes @ 0xE0001FF0) - Data: 0D 00 00 00 E0 00 00 00 05 00 00 00 B1 00 00 00  returns 0x00 (0001ms, 0609ms total)
T2184 001:005 JLINK_ReadMem (0xE0001FD0, 0x0020 Bytes, ...) -- CPU is running -- CPU_ReadMem(32 bytes @ 0xE0001FD0) - Data: 04 00 00 00 00 00 00 00 00 00 00 00 00 00 00 00 ...  returns 0x00 (0002ms, 0611ms total)
T2184 001:007 JLINK_ReadMem (0xE0002FF0, 0x0010 Bytes, ...) -- CPU is running -- CPU_ReadMem(16 bytes @ 0xE0002FF0) - Data: 0D 00 00 00 E0 00 00 00 05 00 00 00 B1 00 00 00  returns 0x00 (0001ms, 0612ms total)
T2184 001:008 JLINK_ReadMem (0xE0002FD0, 0x0020 Bytes, ...) -- CPU is running -- CPU_ReadMem(32 bytes @ 0xE0002FD0) - Data: 04 00 00 00 00 00 00 00 00 00 00 00 00 00 00 00 ...  returns 0x00 (0001ms, 0613ms total)
T2184 001:009 JLINK_ReadMem (0xE0000FF0, 0x0010 Bytes, ...) -- CPU is running -- CPU_ReadMem(16 bytes @ 0xE0000FF0) - Data: 0D 00 00 00 E0 00 00 00 05 00 00 00 B1 00 00 00  returns 0x00 (0001ms, 0614ms total)
T2184 001:010 JLINK_ReadMem (0xE0000FD0, 0x0020 Bytes, ...) -- CPU is running -- CPU_ReadMem(32 bytes @ 0xE0000FD0) - Data: 04 00 00 00 00 00 00 00 00 00 00 00 00 00 00 00 ...  returns 0x00 (0001ms, 0615ms total)
T2184 001:011 JLINK_ReadMem (0xE0040FF0, 0x0010 Bytes, ...) -- CPU is running -- CPU_ReadMem(16 bytes @ 0xE0040FF0) - Data: 0D 00 00 00 90 00 00 00 05 00 00 00 B1 00 00 00  returns 0x00 (0001ms, 0616ms total)
T2184 001:012 JLINK_ReadMem (0xE0040FD0, 0x0020 Bytes, ...) -- CPU is running -- CPU_ReadMem(32 bytes @ 0xE0040FD0) - Data: 04 00 00 00 00 00 00 00 00 00 00 00 00 00 00 00 ...  returns 0x00 (0001ms, 0617ms total)
T2184 001:013 JLINK_ReadMem (0xE0041FF0, 0x0010 Bytes, ...) -- CPU is running -- CPU_ReadMem(16 bytes @ 0xE0041FF0) - Data: 0D 00 00 00 90 00 00 00 05 00 00 00 B1 00 00 00  returns 0x00 (0001ms, 0618ms total)
T2184 001:014 JLINK_ReadMem (0xE0041FD0, 0x0020 Bytes, ...) -- CPU is running -- CPU_ReadMem(32 bytes @ 0xE0041FD0) - Data: 04 00 00 00 00 00 00 00 00 00 00 00 00 00 00 00 ...  returns 0x00 (0002ms, 0620ms total)
T2184 001:016 JLINK_ReadMemU32(0xE000ED00, 0x0001 Items, ...) -- CPU is running -- CPU_ReadMem(4 bytes @ 0xE000ED00) - Data: 31 C2 1F 41  returns 0x01 (0001ms, 0621ms total)
T2184 001:017 JLINK_SetResetType(JLINKARM_RESET_TYPE_NORMAL)  returns JLINKARM_RESET_TYPE_NORMAL (0000ms, 0621ms total)
T2184 001:017 JLINK_Reset() -- CPU is running -- CPU_WriteMem(4 bytes @ 0xE000EDF0) -- CPU is running -- CPU_WriteMem(4 bytes @ 0xE000EDFC) >0x35 TIF> -- CPU is running -- CPU_WriteMem(4 bytes @ 0xE000ED0C) -- CPU is running -- CPU_ReadMem(4 bytes @ 0xE000EDF0) -- CPU is running -- CPU_ReadMem(4 bytes @ 0xE000EDF0) -- CPU is running -- CPU_WriteMem(4 bytes @ 0xE000EDF0) -- CPU is running -- CPU_WriteMem(4 bytes @ 0xE000EDFC) -- CPU is running -- CPU_ReadMem(4 bytes @ 0xE000EDF0)
 -- CPU_WriteMem(4 bytes @ 0xE0002000) -- CPU_ReadMem(4 bytes @ 0xE000EDFC) -- CPU_ReadMem(4 bytes @ 0xE0001000) (0024ms, 0645ms total)
T2184 001:041 JLINK_ReadReg(R15 (PC))  returns 0x08000144 (0000ms, 0645ms total)
T2184 001:041 JLINK_ReadReg(XPSR)  returns 0x01000000 (0000ms, 0645ms total)
T2184 001:041 JLINK_Halt()  returns 0x00 (0000ms, 0645ms total)
T2184 001:041 JLINK_IsHalted()  returns TRUE (0000ms, 0645ms total)
T2184 001:041 JLINK_ReadMemU32(0xE000EDF0, 0x0001 Items, ...) -- CPU_ReadMem(4 bytes @ 0xE000EDF0) - Data: 03 00 03 00  returns 0x01 (0001ms, 0646ms total)
T2184 001:042 JLINK_WriteU32(0xE000EDF0, 0xA05F0003) -- CPU_WriteMem(4 bytes @ 0xE000EDF0)  returns 0x00 (0001ms, 0647ms total)
T2184 001:043 JLINK_WriteU32(0xE000EDFC, 0x01000000) -- CPU_WriteMem(4 bytes @ 0xE000EDFC)  returns 0x00 (0000ms, 0647ms total)
T2184 001:046 JLINK_GetHWStatus(...)  returns 0x00 (0001ms, 0648ms total)
T2184 001:048 JLINK_GetNumBPUnits(Type = 0xFFFFFF00)  returns 0x06 (0001ms, 0649ms total)
T2184 001:049 JLINK_GetNumBPUnits(Type = 0xF0)  returns 0x2000 (0000ms, 0649ms total)
T2184 001:049 JLINK_GetNumWPUnits()  returns 0x04 (0000ms, 0649ms total)
T2184 001:050 JLINK_GetSpeed()  returns 0x7D0 (0000ms, 0649ms total)
T2184 001:056 JLINK_ReadMemU32(0xE000E004, 0x0001 Items, ...) -- CPU_ReadMem(4 bytes @ 0xE000E004) - Data: 01 00 00 00  returns 0x01 (0001ms, 0650ms total)
T2184 001:057 JLINK_ReadMemU32(0xE000E004, 0x0001 Items, ...) -- CPU_ReadMem(4 bytes @ 0xE000E004) - Data: 01 00 00 00  returns 0x01 (0000ms, 0650ms total)
T2184 001:057 JLINK_WriteMem(0xE0001000, 0x001C Bytes, ...) - Data: 01 00 00 00 00 00 00 00 00 00 00 00 00 00 00 00 ... -- CPU_WriteMem(28 bytes @ 0xE0001000)  returns 0x1C (0002ms, 0652ms total)
T2184 001:059 JLINK_ReadMem (0xE0001000, 0x001C Bytes, ...) -- CPU_ReadMem(28 bytes @ 0xE0001000) - Data: 01 00 00 40 00 00 00 00 00 00 00 00 00 00 00 00 ...  returns 0x00 (0001ms, 0653ms total)
T2184 001:060 JLINK_ReadReg(R15 (PC))  returns 0x08000144 (0000ms, 0653ms total)
T2184 001:060 JLINK_ReadReg(XPSR)  returns 0x01000000 (0000ms, 0653ms total)
T2184 001:290 JLINK_SetResetType(JLINKARM_RESET_TYPE_NORMAL)  returns JLINKARM_RESET_TYPE_NORMAL (0000ms, 0653ms total)
T2184 001:290 JLINK_Reset() -- CPU_WriteMem(4 bytes @ 0xE000EDF0) -- CPU_WriteMem(4 bytes @ 0xE000EDFC) >0x35 TIF> -- CPU_WriteMem(4 bytes @ 0xE000ED0C) -- CPU_ReadMem(4 bytes @ 0xE000EDF0) -- CPU_ReadMem(4 bytes @ 0xE000EDF0) -- CPU_WriteMem(4 bytes @ 0xE000EDF0) -- CPU_WriteMem(4 bytes @ 0xE000EDFC) -- CPU is running -- CPU_ReadMem(4 bytes @ 0xE000EDF0) -- CPU_WriteMem(4 bytes @ 0xE0002000) -- CPU_ReadMem(4 bytes @ 0xE000EDFC) -- CPU_ReadMem(4 bytes @ 0xE0001000) (0025ms, 0678ms total)
T2184 001:316 JLINK_ReadReg(R15 (PC))  returns 0x08000144 (0000ms, 0678ms total)
T2184 001:316 JLINK_ReadReg(XPSR)  returns 0x01000000 (0000ms, 0678ms total)
T2184 001:840 JLINK_ReadMem (0x08000144, 0x003C Bytes, ...) -- CPU_ReadMem(64 bytes @ 0x08000140) -- Updating C cache (64 bytes @ 0x08000140) -- Read from C cache (60 bytes @ 0x08000144) - Data: 06 48 80 47 06 48 00 47 FE E7 FE E7 FE E7 FE E7 ...  returns 0x00 (0002ms, 0680ms total)
T2184 005:515 JLINK_ReadMem (0x200007FE, 0x0002 Bytes, ...) -- CPU_ReadMem(64 bytes @ 0x200007C0) -- Updating C cache (64 bytes @ 0x200007C0) -- Read from C cache (2 bytes @ 0x200007FE) - Data: FF 7E  returns 0x00 (0002ms, 0682ms total)
T2184 005:517 JLINK_ReadMem (0x20000800, 0x001E Bytes, ...) -- CPU_ReadMem(64 bytes @ 0x20000800) -- Updating C cache (64 bytes @ 0x20000800) -- Read from C cache (30 bytes @ 0x20000800) - Data: 7E 7E 7E 7E 7E 7E 7E 7E 7E 7E 7E 7E 7E 7E 7E 7E ...  returns 0x00 (0001ms, 0683ms total)
T49C8 005:619 JLINK_SetBPEx(Addr = 0x08002ED4, Type = 0xFFFFFFF2)  returns 0x00000001 (0000ms, 0683ms total)
T49C8 005:619 JLINK_SetBPEx(Addr = 0x08002BFC, Type = 0xFFFFFFF2)  returns 0x00000002 (0000ms, 0683ms total)
T49C8 005:619 JLINK_SetBPEx(Addr = 0x08000F66, Type = 0xFFFFFFF2)  returns 0x00000003 (0000ms, 0683ms total)
T49C8 005:619 JLINK_SetBPEx(Addr = 0x08000FBC, Type = 0xFFFFFFF2)  returns 0x00000004 (0000ms, 0683ms total)
T49C8 005:619 JLINK_Go() -- CPU_WriteMem(4 bytes @ 0xE0002000) -- CPU_WriteMem(4 bytes @ 0xE0002008) -- CPU_WriteMem(4 bytes @ 0xE0002000) -- CPU_WriteMem(4 bytes @ 0xE000200C) -- CPU_WriteMem(4 bytes @ 0xE0002000) -- CPU_WriteMem(4 bytes @ 0xE0002010) -- CPU_WriteMem(4 bytes @ 0xE0002000) -- CPU_WriteMem(4 bytes @ 0xE0002014) -- CPU_WriteMem(4 bytes @ 0xE0002018) -- CPU_WriteMem(4 bytes @ 0xE000201C) -- CPU_WriteMem(4 bytes @ 0xE0001004) (0011ms, 0694ms total)
T49C8 005:731 JLINK_IsHalted()  returns TRUE (0005ms, 0699ms total)
T49C8 005:736 JLINK_Halt()  returns 0x00 (0000ms, 0694ms total)
T49C8 005:736 JLINK_IsHalted()  returns TRUE (0000ms, 0694ms total)
T49C8 005:736 JLINK_IsHalted()  returns TRUE (0000ms, 0694ms total)
T49C8 005:736 JLINK_IsHalted()  returns TRUE (0000ms, 0694ms total)
T49C8 005:736 JLINK_ReadReg(R15 (PC))  returns 0x08002ED4 (0000ms, 0694ms total)
T49C8 005:736 JLINK_ReadReg(XPSR)  returns 0x61000000 (0000ms, 0694ms total)
T49C8 005:736 JLINK_ClrBPEx(BPHandle = 0x00000001)  returns 0x00 (0000ms, 0694ms total)
T49C8 005:736 JLINK_ClrBPEx(BPHandle = 0x00000002)  returns 0x00 (0000ms, 0694ms total)
T49C8 005:736 JLINK_ClrBPEx(BPHandle = 0x00000003)  returns 0x00 (0000ms, 0694ms total)
T49C8 005:736 JLINK_ClrBPEx(BPHandle = 0x00000004)  returns 0x00 (0000ms, 0694ms total)
T49C8 005:736 JLINK_ReadMemU32(0xE000ED30, 0x0001 Items, ...) -- CPU_ReadMem(4 bytes @ 0xE000ED30) - Data: 02 00 00 00  returns 0x01 (0001ms, 0695ms total)
T49C8 005:737 JLINK_ReadMemU32(0xE0001028, 0x0001 Items, ...) -- CPU_ReadMem(4 bytes @ 0xE0001028) - Data: 00 00 00 00  returns 0x01 (0001ms, 0696ms total)
T49C8 005:738 JLINK_ReadMemU32(0xE0001038, 0x0001 Items, ...) -- CPU_ReadMem(4 bytes @ 0xE0001038) - Data: 00 02 00 00  returns 0x01 (0001ms, 0697ms total)
T49C8 005:739 JLINK_ReadMemU32(0xE0001048, 0x0001 Items, ...) -- CPU_ReadMem(4 bytes @ 0xE0001048) - Data: 00 00 00 00  returns 0x01 (0000ms, 0697ms total)
T49C8 005:739 JLINK_ReadMemU32(0xE0001058, 0x0001 Items, ...) -- CPU_ReadMem(4 bytes @ 0xE0001058) - Data: 00 00 00 00  returns 0x01 (0001ms, 0698ms total)
T49C8 005:740 JLINK_ReadReg(R0)  returns 0x08002ED5 (0000ms, 0698ms total)
T49C8 005:740 JLINK_ReadReg(R1)  returns 0x20001438 (0000ms, 0698ms total)
T49C8 005:740 JLINK_ReadReg(R2)  returns 0x00000000 (0000ms, 0698ms total)
T49C8 005:740 JLINK_ReadReg(R3)  returns 0x0800232D (0000ms, 0698ms total)
T49C8 005:740 JLINK_ReadReg(R4)  returns 0x08003930 (0000ms, 0698ms total)
T49C8 005:740 JLINK_ReadReg(R5)  returns 0x08003930 (0000ms, 0698ms total)
T49C8 005:740 JLINK_ReadReg(R6)  returns 0x00000000 (0000ms, 0698ms total)
T49C8 005:740 JLINK_ReadReg(R7)  returns 0x00000000 (0001ms, 0699ms total)
T49C8 005:741 JLINK_ReadReg(R8)  returns 0x00000000 (0000ms, 0699ms total)
T49C8 005:741 JLINK_ReadReg(R9)  returns 0x20000160 (0000ms, 0699ms total)
T49C8 005:741 JLINK_ReadReg(R10)  returns 0x00000000 (0000ms, 0699ms total)
T49C8 005:741 JLINK_ReadReg(R11)  returns 0x00000000 (0000ms, 0699ms total)
T49C8 005:741 JLINK_ReadReg(R12)  returns 0x0800385C (0000ms, 0699ms total)
T49C8 005:741 JLINK_ReadReg(R13 (SP))  returns 0x20001438 (0000ms, 0699ms total)
T49C8 005:741 JLINK_ReadReg(R14)  returns 0x0800075D (0000ms, 0699ms total)
T49C8 005:741 JLINK_ReadReg(R15 (PC))  returns 0x08002ED4 (0000ms, 0699ms total)
T49C8 005:741 JLINK_ReadReg(XPSR)  returns 0x61000000 (0000ms, 0699ms total)
T49C8 005:741 JLINK_ReadReg(MSP)  returns 0x20001438 (0000ms, 0699ms total)
T49C8 005:741 JLINK_ReadReg(PSP)  returns 0x20001000 (0000ms, 0699ms total)
T49C8 005:741 JLINK_ReadReg(CFBP)  returns 0x00000000 (0000ms, 0699ms total)
T2184 005:748 JLINK_ReadMem (0x200007FE, 0x0002 Bytes, ...) -- CPU_ReadMem(64 bytes @ 0x200007C0) -- Updating C cache (64 bytes @ 0x200007C0) -- Read from C cache (2 bytes @ 0x200007FE) - Data: 00 00  returns 0x00 (0001ms, 0700ms total)
T2184 005:749 JLINK_ReadMem (0x20000800, 0x001E Bytes, ...) -- CPU_ReadMem(64 bytes @ 0x20000800) -- Updating C cache (64 bytes @ 0x20000800) -- Read from C cache (30 bytes @ 0x20000800) - Data: 00 00 00 00 00 00 00 00 00 00 00 00 00 00 00 00 ...  returns 0x00 (0002ms, 0702ms total)
T2184 005:765 JLINK_ReadMem (0x08002ED4, 0x003C Bytes, ...) -- CPU_ReadMem(128 bytes @ 0x08002EC0) -- Updating C cache (128 bytes @ 0x08002EC0) -- Read from C cache (60 bytes @ 0x08002ED4) - Data: 21 48 FD F7 D7 FC FF F7 E9 FE 4F F4 A0 60 FE F7 ...  returns 0x00 (0002ms, 0704ms total)
T49C8 121:757 JLINK_SetBPEx(Addr = 0x08002BFC, Type = 0xFFFFFFF2)Target system has been power-cycled >0x108 TIF>Found SWD-DP with ID 0x1BA01477 >0x0D TIF> >0x28 TIF> >0x0D TIF> >0x28 TIF> >0x0D TIF> >0x21 TIF> >0x0D TIF> >0x28 TIF> >0x0D TIF> >0x28 TIF> >0x0D TIF> >0x28 TIF> >0x0D TIF> >0x21 TIF> >0x0D TIF> >0x21 TIF> >0x0D TIF> >0x28 TIF> >0x0D TIF> >0x21 TIF> >0x0D TIF> >0x21 TIF> >0x108 TIF>Found SWD-DP with ID 0x1BA01477 >0x0D TIF> >0x21 TIF> >0x0D TIF> >0x28 TIF> >0x0D TIF> >0x28 TIF> >0x0D TIF>
 >0x21 TIF> >0x0D TIF> >0x28 TIF> >0x0D TIF> >0x21 TIF> >0x0D TIF> >0x21 TIF> >0x0D TIF> >0x21 TIF> >0x0D TIF> >0x21 TIF> >0x0D TIF> >0x28 TIF> >0x0D TIF> >0x28 TIF> >0x0D TIF> >0x21 TIF> >0x0D TIF> >0x28 TIF> >0x0D TIF> >0x28 TIF> >0x0D TIF> >0x28 TIF> >0x0D TIF> >0x21 TIF> >0x0D TIF> >0x21 TIF> >0x0D TIF> >0x28 TIF> >0x0D TIF> >0x21 TIF> >0x0D TIF> >0x21 TIF>Found Cortex-M3 r1p1, Little endian. -- CPU_WriteMem(4 bytes @ 0xE0002000) -- CPU_ReadMem(4 bytes @ 0xE000EDF0)
 -- CPU_ReadMem(4 bytes @ 0xE0002000)FPUnit: 6 code (BP) slots and 2 literal slots -- CPU_ReadMem(4 bytes @ 0xE000EDFC) -- CPU_ReadMem(4 bytes @ 0xE0001000) -- CPU_ReadMem(4 bytes @ 0xE00FF010)TPIU fitted.ETM fitted. -- CPU_ReadMem(4 bytes @ 0xE00FF018)  returns 0x00000005 (0056ms, 0760ms total)
T49C8 121:813 JLINK_SetBPEx(Addr = 0x08000F66, Type = 0xFFFFFFF2)  returns 0x00000006 (0000ms, 0760ms total)
T49C8 121:813 JLINK_SetBPEx(Addr = 0x08000FBC, Type = 0xFFFFFFF2)  returns 0x00000007 (0000ms, 0760ms total)
T49C8 121:813 JLINK_Go() -- CPU_WriteMem(4 bytes @ 0xE0002000) -- CPU_WriteMem(4 bytes @ 0xE000200C) -- CPU_WriteMem(4 bytes @ 0xE0002008) -- CPU_WriteMem(4 bytes @ 0xE0002000) -- CPU_WriteMem(4 bytes @ 0xE0002010) -- CPU_WriteMem(4 bytes @ 0xE000200C) -- CPU_WriteMem(4 bytes @ 0xE0002008) -- CPU_WriteMem(4 bytes @ 0xE0002000) -- CPU_WriteMem(4 bytes @ 0xE0002014) -- CPU_WriteMem(4 bytes @ 0xE0002010) -- CPU_WriteMem(4 bytes @ 0xE000200C) -- CPU_WriteMem(4 bytes @ 0xE0002010)
 -- CPU_WriteMem(4 bytes @ 0xE0002014) -- CPU_WriteMem(4 bytes @ 0xE0002018) -- CPU_WriteMem(4 bytes @ 0xE000201C) (0013ms, 0773ms total)
T49C8 121:927 JLINK_IsHalted()  returns FALSE (0001ms, 0774ms total)
T49C8 122:029 JLINK_IsHalted()  returns FALSE (0000ms, 0773ms total)
T49C8 122:130 JLINK_IsHalted()  returns FALSE (0001ms, 0774ms total)
T49C8 122:232 JLINK_IsHalted()  returns FALSE (0000ms, 0773ms total)
T49C8 122:333 JLINK_IsHalted()  returns FALSE (0001ms, 0774ms total)
T49C8 122:435 JLINK_IsHalted()  returns FALSE (0000ms, 0773ms total)
T49C8 122:535 JLINK_IsHalted()  returns FALSE (0000ms, 0773ms total)
T49C8 122:636 JLINK_IsHalted()  returns FALSE (0000ms, 0773ms total)
T49C8 122:738 JLINK_IsHalted()  returns FALSE (0000ms, 0773ms total)
T49C8 122:840 JLINK_IsHalted()  returns FALSE (0001ms, 0774ms total)
T49C8 122:942 JLINK_IsHalted()  returns FALSE (0001ms, 0774ms total)
T49C8 123:044 JLINK_IsHalted()  returns FALSE (0001ms, 0774ms total)
T49C8 123:146 JLINK_IsHalted()  returns FALSE (0001ms, 0774ms total)
T49C8 123:248 JLINK_IsHalted()  returns TRUE (0005ms, 0778ms total)
T49C8 123:253 JLINK_Halt()  returns 0x00 (0000ms, 0773ms total)
T49C8 123:253 JLINK_IsHalted()  returns TRUE (0000ms, 0773ms total)
T49C8 123:253 JLINK_IsHalted()  returns TRUE (0000ms, 0773ms total)
T49C8 123:253 JLINK_IsHalted()  returns TRUE (0000ms, 0773ms total)
T49C8 123:253 JLINK_ReadReg(R15 (PC))  returns 0x08000F66 (0000ms, 0773ms total)
T49C8 123:253 JLINK_ReadReg(XPSR)  returns 0x81000000 (0000ms, 0773ms total)
T49C8 123:253 JLINK_ClrBPEx(BPHandle = 0x00000005)  returns 0x00 (0000ms, 0773ms total)
T49C8 123:253 JLINK_ClrBPEx(BPHandle = 0x00000006)  returns 0x00 (0000ms, 0773ms total)
T49C8 123:253 JLINK_ClrBPEx(BPHandle = 0x00000007)  returns 0x00 (0000ms, 0773ms total)
T49C8 123:253 JLINK_ReadMemU32(0xE000ED30, 0x0001 Items, ...) -- CPU_ReadMem(4 bytes @ 0xE000ED30) - Data: 02 00 00 00  returns 0x01 (0001ms, 0774ms total)
T49C8 123:254 JLINK_ReadMemU32(0xE0001028, 0x0001 Items, ...) -- CPU_ReadMem(4 bytes @ 0xE0001028) - Data: 00 00 00 00  returns 0x01 (0001ms, 0775ms total)
T49C8 123:255 JLINK_ReadMemU32(0xE0001038, 0x0001 Items, ...) -- CPU_ReadMem(4 bytes @ 0xE0001038) - Data: 00 02 00 00  returns 0x01 (0001ms, 0776ms total)
T49C8 123:256 JLINK_ReadMemU32(0xE0001048, 0x0001 Items, ...) -- CPU_ReadMem(4 bytes @ 0xE0001048) - Data: 00 00 00 00  returns 0x01 (0001ms, 0777ms total)
T49C8 123:257 JLINK_ReadMemU32(0xE0001058, 0x0001 Items, ...) -- CPU_ReadMem(4 bytes @ 0xE0001058) - Data: 00 00 00 00  returns 0x01 (0001ms, 0778ms total)
T49C8 123:258 JLINK_ReadReg(R0)  returns 0x40010C00 (0000ms, 0778ms total)
T49C8 123:258 JLINK_ReadReg(R1)  returns 0x00000010 (0000ms, 0778ms total)
T49C8 123:258 JLINK_ReadReg(R2)  returns 0x00000012 (0000ms, 0778ms total)
T49C8 123:258 JLINK_ReadReg(R3)  returns 0x00000001 (0000ms, 0778ms total)
T49C8 123:258 JLINK_ReadReg(R4)  returns 0x00000067 (0000ms, 0778ms total)
T49C8 123:258 JLINK_ReadReg(R5)  returns 0x000249F0 (0000ms, 0778ms total)
T49C8 123:258 JLINK_ReadReg(R6)  returns 0x00000320 (0000ms, 0778ms total)
T49C8 123:258 JLINK_ReadReg(R7)  returns 0x00000001 (0000ms, 0778ms total)
T49C8 123:258 JLINK_ReadReg(R8)  returns 0x00024734 (0001ms, 0779ms total)
T49C8 123:259 JLINK_ReadReg(R9)  returns 0x00000000 (0000ms, 0779ms total)
T49C8 123:259 JLINK_ReadReg(R10)  returns 0x00000000 (0000ms, 0779ms total)
T49C8 123:259 JLINK_ReadReg(R11)  returns 0x00000000 (0000ms, 0779ms total)
T49C8 123:259 JLINK_ReadReg(R12)  returns 0x0800385C (0000ms, 0779ms total)
T49C8 123:259 JLINK_ReadReg(R13 (SP))  returns 0x20001408 (0000ms, 0779ms total)
T49C8 123:259 JLINK_ReadReg(R14)  returns 0x08000F4D (0000ms, 0779ms total)
T49C8 123:259 JLINK_ReadReg(R15 (PC))  returns 0x08000F66 (0000ms, 0779ms total)
T49C8 123:259 JLINK_ReadReg(XPSR)  returns 0x81000000 (0000ms, 0779ms total)
T49C8 123:259 JLINK_ReadReg(MSP)  returns 0x20001408 (0000ms, 0779ms total)
T49C8 123:259 JLINK_ReadReg(PSP)  returns 0x20001000 (0000ms, 0779ms total)
T49C8 123:259 JLINK_ReadReg(CFBP)  returns 0x00000000 (0000ms, 0779ms total)
T2184 123:259 JLINK_ReadMem (0x2000142C, 0x0004 Bytes, ...) -- CPU_ReadMem(64 bytes @ 0x20001400) -- Updating C cache (64 bytes @ 0x20001400) -- Read from C cache (4 bytes @ 0x2000142C) - Data: 0F 30 00 08  returns 0x00 (0002ms, 0781ms total)
T2184 123:261 JLINK_ReadMem (0x2000140C, 0x0004 Bytes, ...) -- Read from C cache (4 bytes @ 0x2000140C) - Data: 30 39 00 08  returns 0x00 (0000ms, 0781ms total)
T2184 123:261 JLINK_ReadMem (0x20001410, 0x0004 Bytes, ...) -- Read from C cache (4 bytes @ 0x20001410) - Data: 30 39 00 08  returns 0x00 (0000ms, 0781ms total)
T2184 123:261 JLINK_ReadMem (0x20001414, 0x0004 Bytes, ...) -- Read from C cache (4 bytes @ 0x20001414) - Data: 00 00 00 00  returns 0x00 (0000ms, 0781ms total)
T2184 123:261 JLINK_ReadMem (0x20001418, 0x0004 Bytes, ...) -- Read from C cache (4 bytes @ 0x20001418) - Data: 00 00 00 00  returns 0x00 (0000ms, 0781ms total)
T2184 123:261 JLINK_ReadMem (0x2000141C, 0x0004 Bytes, ...) -- Read from C cache (4 bytes @ 0x2000141C) - Data: 00 00 00 00  returns 0x00 (0000ms, 0781ms total)
T2184 123:261 JLINK_ReadMem (0x20001420, 0x0004 Bytes, ...) -- Read from C cache (4 bytes @ 0x20001420) - Data: 60 01 00 20  returns 0x00 (0000ms, 0781ms total)
T2184 123:261 JLINK_ReadMem (0x20001424, 0x0004 Bytes, ...) -- Read from C cache (4 bytes @ 0x20001424) - Data: 00 00 00 00  returns 0x00 (0000ms, 0781ms total)
T2184 123:261 JLINK_ReadMem (0x20001428, 0x0004 Bytes, ...) -- Read from C cache (4 bytes @ 0x20001428) - Data: 00 00 00 00  returns 0x00 (0000ms, 0781ms total)
T2184 123:261 JLINK_ReadMem (0x20001434, 0x0004 Bytes, ...) -- Read from C cache (4 bytes @ 0x20001434) - Data: 59 2F 00 08  returns 0x00 (0000ms, 0781ms total)
T2184 123:261 JLINK_ReadMem (0x20001430, 0x0004 Bytes, ...) -- Read from C cache (4 bytes @ 0x20001430) - Data: 30 39 00 08  returns 0x00 (0000ms, 0781ms total)
T2184 123:261 JLINK_ReadMem (0x20000314, 0x0004 Bytes, ...) -- CPU_ReadMem(64 bytes @ 0x20000300) -- Updating C cache (64 bytes @ 0x20000300) -- Read from C cache (4 bytes @ 0x20000314) - Data: 02 00 00 00  returns 0x00 (0002ms, 0783ms total)
T2184 123:263 JLINK_ReadMem (0x20000318, 0x0004 Bytes, ...) -- Read from C cache (4 bytes @ 0x20000318) - Data: 02 00 00 00  returns 0x00 (0000ms, 0783ms total)
T2184 123:263 JLINK_ReadMem (0x20001408, 0x0001 Bytes, ...) -- Read from C cache (1 bytes @ 0x20001408) - Data: 00  returns 0x00 (0000ms, 0783ms total)
T2184 123:267 JLINK_ReadMem (0x200007FE, 0x0002 Bytes, ...) -- CPU_ReadMem(64 bytes @ 0x200007C0) -- Updating C cache (64 bytes @ 0x200007C0) -- Read from C cache (2 bytes @ 0x200007FE) - Data: FF 00  returns 0x00 (0001ms, 0784ms total)
T2184 123:268 JLINK_ReadMem (0x20000800, 0x001E Bytes, ...) -- CPU_ReadMem(64 bytes @ 0x20000800) -- Updating C cache (64 bytes @ 0x20000800) -- Read from C cache (30 bytes @ 0x20000800) - Data: 00 00 00 00 00 00 00 00 00 00 00 00 00 00 00 00 ...  returns 0x00 (0002ms, 0786ms total)
T2184 123:291 JLINK_ReadMem (0x08000F66, 0x0002 Bytes, ...) -- CPU_ReadMem(64 bytes @ 0x08000F40) -- Updating C cache (64 bytes @ 0x08000F40) -- Read from C cache (2 bytes @ 0x08000F66) - Data: A5 F1  returns 0x00 (0001ms, 0787ms total)
T2184 123:292 JLINK_ReadMem (0x08000F68, 0x003C Bytes, ...) -- CPU_ReadMem(64 bytes @ 0x08000F80) -- Updating C cache (64 bytes @ 0x08000F80) -- Read from C cache (60 bytes @ 0x08000F68) - Data: 64 00 41 08 82 08 4F F4 34 73 4F EA 53 0C 4F EA ...  returns 0x00 (0003ms, 0790ms total)
T49C8 125:262 JLINK_Step() -- Read from C cache (2 bytes @ 0x08000F66) -- CPU_ReadMem(4 bytes @ 0xE0001004) -- Read from C cache (2 bytes @ 0x08000F68) -- Simulated  returns 0x00 (0002ms, 0792ms total)
T49C8 125:264 JLINK_ReadReg(R15 (PC))  returns 0x08000F6A (0000ms, 0792ms total)
T49C8 125:264 JLINK_ReadReg(XPSR)  returns 0x81000000 (0000ms, 0792ms total)
T49C8 125:264 JLINK_SetBPEx(Addr = 0x08002BFC, Type = 0xFFFFFFF2)  returns 0x00000008 (0000ms, 0792ms total)
T49C8 125:264 JLINK_SetBPEx(Addr = 0x08000F66, Type = 0xFFFFFFF2)  returns 0x00000009 (0000ms, 0792ms total)
T49C8 125:264 JLINK_SetBPEx(Addr = 0x08000FBC, Type = 0xFFFFFFF2)  returns 0x0000000A (0000ms, 0792ms total)
T49C8 125:264 JLINK_Go() -- CPU_WriteMem(4 bytes @ 0xE0002000) -- CPU_WriteMem(4 bytes @ 0xE0002000) -- CPU_WriteMem(4 bytes @ 0xE0002000) -- CPU_WriteMem(4 bytes @ 0xE0001004) (0005ms, 0797ms total)
T49C8 125:370 JLINK_IsHalted()  returns TRUE (0005ms, 0802ms total)
T49C8 125:375 JLINK_Halt()  returns 0x00 (0000ms, 0797ms total)
T49C8 125:375 JLINK_IsHalted()  returns TRUE (0000ms, 0797ms total)
T49C8 125:375 JLINK_IsHalted()  returns TRUE (0000ms, 0797ms total)
T49C8 125:375 JLINK_IsHalted()  returns TRUE (0000ms, 0797ms total)
T49C8 125:375 JLINK_ReadReg(R15 (PC))  returns 0x08000F66 (0000ms, 0797ms total)
T49C8 125:375 JLINK_ReadReg(XPSR)  returns 0x81000000 (0000ms, 0797ms total)
T49C8 125:375 JLINK_ClrBPEx(BPHandle = 0x00000008)  returns 0x00 (0000ms, 0797ms total)
T49C8 125:375 JLINK_ClrBPEx(BPHandle = 0x00000009)  returns 0x00 (0000ms, 0797ms total)
T49C8 125:375 JLINK_ClrBPEx(BPHandle = 0x0000000A)  returns 0x00 (0000ms, 0797ms total)
T49C8 125:375 JLINK_ReadMemU32(0xE000ED30, 0x0001 Items, ...) -- CPU_ReadMem(4 bytes @ 0xE000ED30) - Data: 02 00 00 00  returns 0x01 (0001ms, 0798ms total)
T49C8 125:376 JLINK_ReadMemU32(0xE0001028, 0x0001 Items, ...) -- CPU_ReadMem(4 bytes @ 0xE0001028) - Data: 00 00 00 00  returns 0x01 (0001ms, 0799ms total)
T49C8 125:377 JLINK_ReadMemU32(0xE0001038, 0x0001 Items, ...) -- CPU_ReadMem(4 bytes @ 0xE0001038) - Data: 00 02 00 00  returns 0x01 (0001ms, 0800ms total)
T49C8 125:378 JLINK_ReadMemU32(0xE0001048, 0x0001 Items, ...) -- CPU_ReadMem(4 bytes @ 0xE0001048) - Data: 00 00 00 00  returns 0x01 (0001ms, 0801ms total)
T49C8 125:379 JLINK_ReadMemU32(0xE0001058, 0x0001 Items, ...) -- CPU_ReadMem(4 bytes @ 0xE0001058) - Data: 00 00 00 00  returns 0x01 (0001ms, 0802ms total)
T49C8 125:380 JLINK_ReadReg(R0)  returns 0x40010C00 (0000ms, 0802ms total)
T49C8 125:380 JLINK_ReadReg(R1)  returns 0x00000010 (0000ms, 0802ms total)
T49C8 125:380 JLINK_ReadReg(R2)  returns 0x00009263 (0000ms, 0802ms total)
T49C8 125:380 JLINK_ReadReg(R3)  returns 0x00000001 (0000ms, 0802ms total)
T49C8 125:380 JLINK_ReadReg(R4)  returns 0x00000069 (0000ms, 0802ms total)
T49C8 125:380 JLINK_ReadReg(R5)  returns 0x000249F0 (0000ms, 0802ms total)
T49C8 125:380 JLINK_ReadReg(R6)  returns 0x00000320 (0000ms, 0802ms total)
T49C8 125:380 JLINK_ReadReg(R7)  returns 0x00000001 (0000ms, 0802ms total)
T49C8 125:380 JLINK_ReadReg(R8)  returns 0x00024734 (0000ms, 0802ms total)
T49C8 125:380 JLINK_ReadReg(R9)  returns 0x00000000 (0000ms, 0802ms total)
T49C8 125:380 JLINK_ReadReg(R10)  returns 0x000000B4 (0000ms, 0802ms total)
T49C8 125:380 JLINK_ReadReg(R11)  returns 0x00000001 (0000ms, 0802ms total)
T49C8 125:380 JLINK_ReadReg(R12)  returns 0x00000168 (0000ms, 0802ms total)
T49C8 125:380 JLINK_ReadReg(R13 (SP))  returns 0x20001408 (0000ms, 0802ms total)
T49C8 125:380 JLINK_ReadReg(R14)  returns 0x08000F4D (0000ms, 0802ms total)
T49C8 125:380 JLINK_ReadReg(R15 (PC))  returns 0x08000F66 (0000ms, 0802ms total)
T49C8 125:380 JLINK_ReadReg(XPSR)  returns 0x81000000 (0000ms, 0802ms total)
T49C8 125:380 JLINK_ReadReg(MSP)  returns 0x20001408 (0000ms, 0802ms total)
T49C8 125:381 JLINK_ReadReg(PSP)  returns 0x20001000 (0000ms, 0803ms total)
T49C8 125:381 JLINK_ReadReg(CFBP)  returns 0x00000000 (0000ms, 0803ms total)
T2184 125:381 JLINK_ReadMem (0x2000142C, 0x0004 Bytes, ...) -- CPU_ReadMem(64 bytes @ 0x20001400) -- Updating C cache (64 bytes @ 0x20001400) -- Read from C cache (4 bytes @ 0x2000142C) - Data: 0F 30 00 08  returns 0x00 (0001ms, 0804ms total)
T2184 125:382 JLINK_ReadMem (0x2000140C, 0x0004 Bytes, ...) -- Read from C cache (4 bytes @ 0x2000140C) - Data: 30 39 00 08  returns 0x00 (0000ms, 0804ms total)
T2184 125:382 JLINK_ReadMem (0x20001410, 0x0004 Bytes, ...) -- Read from C cache (4 bytes @ 0x20001410) - Data: 30 39 00 08  returns 0x00 (0000ms, 0804ms total)
T2184 125:382 JLINK_ReadMem (0x20001414, 0x0004 Bytes, ...) -- Read from C cache (4 bytes @ 0x20001414) - Data: 00 00 00 00  returns 0x00 (0000ms, 0804ms total)
T2184 125:382 JLINK_ReadMem (0x20001418, 0x0004 Bytes, ...) -- Read from C cache (4 bytes @ 0x20001418) - Data: 00 00 00 00  returns 0x00 (0000ms, 0804ms total)
T2184 125:382 JLINK_ReadMem (0x2000141C, 0x0004 Bytes, ...) -- Read from C cache (4 bytes @ 0x2000141C) - Data: 00 00 00 00  returns 0x00 (0001ms, 0805ms total)
T2184 125:383 JLINK_ReadMem (0x20001420, 0x0004 Bytes, ...) -- Read from C cache (4 bytes @ 0x20001420) - Data: 60 01 00 20  returns 0x00 (0000ms, 0805ms total)
T2184 125:383 JLINK_ReadMem (0x20001424, 0x0004 Bytes, ...) -- Read from C cache (4 bytes @ 0x20001424) - Data: 00 00 00 00  returns 0x00 (0000ms, 0805ms total)
T2184 125:383 JLINK_ReadMem (0x20001428, 0x0004 Bytes, ...) -- Read from C cache (4 bytes @ 0x20001428) - Data: 00 00 00 00  returns 0x00 (0000ms, 0805ms total)
T2184 125:383 JLINK_ReadMem (0x20001434, 0x0004 Bytes, ...) -- Read from C cache (4 bytes @ 0x20001434) - Data: 59 2F 00 08  returns 0x00 (0000ms, 0805ms total)
T2184 125:383 JLINK_ReadMem (0x20001430, 0x0004 Bytes, ...) -- Read from C cache (4 bytes @ 0x20001430) - Data: 30 39 00 08  returns 0x00 (0000ms, 0805ms total)
T2184 125:383 JLINK_ReadMem (0x20000314, 0x0004 Bytes, ...) -- CPU_ReadMem(64 bytes @ 0x20000300) -- Updating C cache (64 bytes @ 0x20000300) -- Read from C cache (4 bytes @ 0x20000314) - Data: 01 00 00 00  returns 0x00 (0001ms, 0806ms total)
T2184 125:384 JLINK_ReadMem (0x20000318, 0x0004 Bytes, ...) -- Read from C cache (4 bytes @ 0x20000318) - Data: 02 00 00 00  returns 0x00 (0000ms, 0806ms total)
T2184 125:384 JLINK_ReadMem (0x20001408, 0x0001 Bytes, ...) -- Read from C cache (1 bytes @ 0x20001408) - Data: 00  returns 0x00 (0001ms, 0807ms total)
T2184 125:387 JLINK_ReadMem (0x200007FE, 0x0002 Bytes, ...) -- CPU_ReadMem(64 bytes @ 0x200007C0) -- Updating C cache (64 bytes @ 0x200007C0) -- Read from C cache (2 bytes @ 0x200007FE) - Data: FF 00  returns 0x00 (0002ms, 0809ms total)
T2184 125:389 JLINK_ReadMem (0x20000800, 0x001E Bytes, ...) -- CPU_ReadMem(64 bytes @ 0x20000800) -- Updating C cache (64 bytes @ 0x20000800) -- Read from C cache (30 bytes @ 0x20000800) - Data: 00 00 00 00 00 00 00 00 00 00 00 00 00 00 00 00 ...  returns 0x00 (0001ms, 0810ms total)
T49C8 126:162 JLINK_Step() -- CPU_ReadMem(64 bytes @ 0x08000F40) -- Updating C cache (64 bytes @ 0x08000F40) -- Read from C cache (2 bytes @ 0x08000F66) -- CPU_ReadMem(4 bytes @ 0xE0001004) -- Read from C cache (2 bytes @ 0x08000F68) -- Simulated  returns 0x00 (0003ms, 0813ms total)
T49C8 126:165 JLINK_ReadReg(R15 (PC))  returns 0x08000F6A (0000ms, 0813ms total)
T49C8 126:165 JLINK_ReadReg(XPSR)  returns 0x81000000 (0000ms, 0813ms total)
T49C8 126:165 JLINK_SetBPEx(Addr = 0x08002BFC, Type = 0xFFFFFFF2)  returns 0x0000000B (0000ms, 0813ms total)
T49C8 126:165 JLINK_SetBPEx(Addr = 0x08000F66, Type = 0xFFFFFFF2)  returns 0x0000000C (0000ms, 0813ms total)
T49C8 126:165 JLINK_SetBPEx(Addr = 0x08000FBC, Type = 0xFFFFFFF2)  returns 0x0000000D (0000ms, 0813ms total)
T49C8 126:165 JLINK_Go() -- CPU_WriteMem(4 bytes @ 0xE0002000) -- CPU_WriteMem(4 bytes @ 0xE0002000) -- CPU_WriteMem(4 bytes @ 0xE0002000) -- CPU_WriteMem(4 bytes @ 0xE0001004) (0005ms, 0818ms total)
T49C8 126:272 JLINK_IsHalted()  returns TRUE (0005ms, 0824ms total)
T49C8 126:277 JLINK_Halt()  returns 0x00 (0000ms, 0819ms total)
T49C8 126:277 JLINK_IsHalted()  returns TRUE (0000ms, 0819ms total)
T49C8 126:277 JLINK_IsHalted()  returns TRUE (0000ms, 0819ms total)
T49C8 126:277 JLINK_IsHalted()  returns TRUE (0000ms, 0819ms total)
T49C8 126:277 JLINK_ReadReg(R15 (PC))  returns 0x08000F66 (0000ms, 0819ms total)
T49C8 126:277 JLINK_ReadReg(XPSR)  returns 0x81000000 (0000ms, 0819ms total)
T49C8 126:277 JLINK_ClrBPEx(BPHandle = 0x0000000B)  returns 0x00 (0000ms, 0819ms total)
T49C8 126:277 JLINK_ClrBPEx(BPHandle = 0x0000000C)  returns 0x00 (0000ms, 0819ms total)
T49C8 126:278 JLINK_ClrBPEx(BPHandle = 0x0000000D)  returns 0x00 (0000ms, 0820ms total)
T49C8 126:278 JLINK_ReadMemU32(0xE000ED30, 0x0001 Items, ...) -- CPU_ReadMem(4 bytes @ 0xE000ED30) - Data: 02 00 00 00  returns 0x01 (0000ms, 0820ms total)
T49C8 126:278 JLINK_ReadMemU32(0xE0001028, 0x0001 Items, ...) -- CPU_ReadMem(4 bytes @ 0xE0001028) - Data: 00 00 00 00  returns 0x01 (0001ms, 0821ms total)
T49C8 126:279 JLINK_ReadMemU32(0xE0001038, 0x0001 Items, ...) -- CPU_ReadMem(4 bytes @ 0xE0001038) - Data: 00 02 00 00  returns 0x01 (0001ms, 0822ms total)
T49C8 126:280 JLINK_ReadMemU32(0xE0001048, 0x0001 Items, ...) -- CPU_ReadMem(4 bytes @ 0xE0001048) - Data: 00 00 00 00  returns 0x01 (0001ms, 0823ms total)
T49C8 126:281 JLINK_ReadMemU32(0xE0001058, 0x0001 Items, ...) -- CPU_ReadMem(4 bytes @ 0xE0001058) - Data: 00 00 00 00  returns 0x01 (0000ms, 0823ms total)
T49C8 126:281 JLINK_ReadReg(R0)  returns 0x40010C00 (0001ms, 0824ms total)
T49C8 126:282 JLINK_ReadReg(R1)  returns 0x00000010 (0000ms, 0824ms total)
T49C8 126:282 JLINK_ReadReg(R2)  returns 0x00009263 (0000ms, 0824ms total)
T49C8 126:282 JLINK_ReadReg(R3)  returns 0x00000001 (0000ms, 0824ms total)
T49C8 126:282 JLINK_ReadReg(R4)  returns 0x0000006B (0000ms, 0824ms total)
T49C8 126:282 JLINK_ReadReg(R5)  returns 0x000249F0 (0000ms, 0824ms total)
T49C8 126:282 JLINK_ReadReg(R6)  returns 0x00000320 (0000ms, 0824ms total)
T49C8 126:282 JLINK_ReadReg(R7)  returns 0x00000001 (0000ms, 0824ms total)
T49C8 126:282 JLINK_ReadReg(R8)  returns 0x00024734 (0000ms, 0824ms total)
T49C8 126:282 JLINK_ReadReg(R9)  returns 0x00000000 (0000ms, 0824ms total)
T49C8 126:282 JLINK_ReadReg(R10)  returns 0x000000B4 (0000ms, 0824ms total)
T49C8 126:282 JLINK_ReadReg(R11)  returns 0x00000001 (0000ms, 0824ms total)
T49C8 126:282 JLINK_ReadReg(R12)  returns 0x00000168 (0000ms, 0824ms total)
T49C8 126:282 JLINK_ReadReg(R13 (SP))  returns 0x20001408 (0000ms, 0824ms total)
T49C8 126:282 JLINK_ReadReg(R14)  returns 0x08000F4D (0000ms, 0824ms total)
T49C8 126:282 JLINK_ReadReg(R15 (PC))  returns 0x08000F66 (0000ms, 0824ms total)
T49C8 126:282 JLINK_ReadReg(XPSR)  returns 0x81000000 (0000ms, 0824ms total)
T49C8 126:282 JLINK_ReadReg(MSP)  returns 0x20001408 (0000ms, 0824ms total)
T49C8 126:282 JLINK_ReadReg(PSP)  returns 0x20001000 (0000ms, 0824ms total)
T49C8 126:282 JLINK_ReadReg(CFBP)  returns 0x00000000 (0000ms, 0824ms total)
T2184 126:283 JLINK_ReadMem (0x2000142C, 0x0004 Bytes, ...) -- CPU_ReadMem(64 bytes @ 0x20001400) -- Updating C cache (64 bytes @ 0x20001400) -- Read from C cache (4 bytes @ 0x2000142C) - Data: 0F 30 00 08  returns 0x00 (0001ms, 0825ms total)
T2184 126:284 JLINK_ReadMem (0x2000140C, 0x0004 Bytes, ...) -- Read from C cache (4 bytes @ 0x2000140C) - Data: 30 39 00 08  returns 0x00 (0000ms, 0825ms total)
T2184 126:284 JLINK_ReadMem (0x20001410, 0x0004 Bytes, ...) -- Read from C cache (4 bytes @ 0x20001410) - Data: 30 39 00 08  returns 0x00 (0000ms, 0825ms total)
T2184 126:284 JLINK_ReadMem (0x20001414, 0x0004 Bytes, ...) -- Read from C cache (4 bytes @ 0x20001414) - Data: 00 00 00 00  returns 0x00 (0000ms, 0825ms total)
T2184 126:284 JLINK_ReadMem (0x20001418, 0x0004 Bytes, ...) -- Read from C cache (4 bytes @ 0x20001418) - Data: 00 00 00 00  returns 0x00 (0000ms, 0825ms total)
T2184 126:285 JLINK_ReadMem (0x2000141C, 0x0004 Bytes, ...) -- Read from C cache (4 bytes @ 0x2000141C) - Data: 00 00 00 00  returns 0x00 (0000ms, 0825ms total)
T2184 126:285 JLINK_ReadMem (0x20001420, 0x0004 Bytes, ...) -- Read from C cache (4 bytes @ 0x20001420) - Data: 60 01 00 20  returns 0x00 (0000ms, 0825ms total)
T2184 126:285 JLINK_ReadMem (0x20001424, 0x0004 Bytes, ...) -- Read from C cache (4 bytes @ 0x20001424) - Data: 00 00 00 00  returns 0x00 (0000ms, 0825ms total)
T2184 126:285 JLINK_ReadMem (0x20001428, 0x0004 Bytes, ...) -- Read from C cache (4 bytes @ 0x20001428) - Data: 00 00 00 00  returns 0x00 (0000ms, 0825ms total)
T2184 126:285 JLINK_ReadMem (0x20001434, 0x0004 Bytes, ...) -- Read from C cache (4 bytes @ 0x20001434) - Data: 59 2F 00 08  returns 0x00 (0000ms, 0825ms total)
T2184 126:285 JLINK_ReadMem (0x20001430, 0x0004 Bytes, ...) -- Read from C cache (4 bytes @ 0x20001430) - Data: 30 39 00 08  returns 0x00 (0000ms, 0825ms total)
T2184 126:285 JLINK_ReadMem (0x20000314, 0x0004 Bytes, ...) -- CPU_ReadMem(64 bytes @ 0x20000300) -- Updating C cache (64 bytes @ 0x20000300) -- Read from C cache (4 bytes @ 0x20000314) - Data: 01 00 00 00  returns 0x00 (0001ms, 0826ms total)
T2184 126:286 JLINK_ReadMem (0x20000318, 0x0004 Bytes, ...) -- Read from C cache (4 bytes @ 0x20000318) - Data: 02 00 00 00  returns 0x00 (0000ms, 0826ms total)
T2184 126:287 JLINK_ReadMem (0x20001408, 0x0001 Bytes, ...) -- Read from C cache (1 bytes @ 0x20001408) - Data: 00  returns 0x00 (0000ms, 0826ms total)
T2184 126:287 JLINK_ReadMem (0x200007FE, 0x0002 Bytes, ...) -- CPU_ReadMem(64 bytes @ 0x200007C0) -- Updating C cache (64 bytes @ 0x200007C0) -- Read from C cache (2 bytes @ 0x200007FE) - Data: FF 00  returns 0x00 (0001ms, 0827ms total)
T2184 126:288 JLINK_ReadMem (0x20000800, 0x001E Bytes, ...) -- CPU_ReadMem(64 bytes @ 0x20000800) -- Updating C cache (64 bytes @ 0x20000800) -- Read from C cache (30 bytes @ 0x20000800) - Data: 00 00 00 00 00 00 00 00 00 00 00 00 00 00 00 00 ...  returns 0x00 (0002ms, 0829ms total)
T49C8 126:747 JLINK_Step() -- CPU_ReadMem(64 bytes @ 0x08000F40) -- Updating C cache (64 bytes @ 0x08000F40) -- Read from C cache (2 bytes @ 0x08000F66) -- CPU_ReadMem(4 bytes @ 0xE0001004) -- Read from C cache (2 bytes @ 0x08000F68) -- Simulated  returns 0x00 (0002ms, 0831ms total)
T49C8 126:749 JLINK_ReadReg(R15 (PC))  returns 0x08000F6A (0000ms, 0831ms total)
T49C8 126:749 JLINK_ReadReg(XPSR)  returns 0x81000000 (0000ms, 0831ms total)
T49C8 126:749 JLINK_SetBPEx(Addr = 0x08002BFC, Type = 0xFFFFFFF2)  returns 0x0000000E (0000ms, 0831ms total)
T49C8 126:749 JLINK_SetBPEx(Addr = 0x08000F66, Type = 0xFFFFFFF2)  returns 0x0000000F (0000ms, 0831ms total)
T49C8 126:749 JLINK_SetBPEx(Addr = 0x08000FBC, Type = 0xFFFFFFF2)  returns 0x00000010 (0001ms, 0832ms total)
T49C8 126:750 JLINK_Go() -- CPU_WriteMem(4 bytes @ 0xE0002000) -- CPU_WriteMem(4 bytes @ 0xE0002000) -- CPU_WriteMem(4 bytes @ 0xE0002000) -- CPU_WriteMem(4 bytes @ 0xE0001004) (0004ms, 0836ms total)
T49C8 126:855 JLINK_IsHalted()  returns TRUE (0005ms, 0841ms total)
T49C8 126:860 JLINK_Halt()  returns 0x00 (0000ms, 0836ms total)
T49C8 126:860 JLINK_IsHalted()  returns TRUE (0000ms, 0836ms total)
T49C8 126:860 JLINK_IsHalted()  returns TRUE (0000ms, 0836ms total)
T49C8 126:860 JLINK_IsHalted()  returns TRUE (0000ms, 0836ms total)
T49C8 126:860 JLINK_ReadReg(R15 (PC))  returns 0x08000F66 (0000ms, 0836ms total)
T49C8 126:860 JLINK_ReadReg(XPSR)  returns 0x81000000 (0000ms, 0836ms total)
T49C8 126:860 JLINK_ClrBPEx(BPHandle = 0x0000000E)  returns 0x00 (0000ms, 0836ms total)
T49C8 126:860 JLINK_ClrBPEx(BPHandle = 0x0000000F)  returns 0x00 (0000ms, 0836ms total)
T49C8 126:860 JLINK_ClrBPEx(BPHandle = 0x00000010)  returns 0x00 (0000ms, 0836ms total)
T49C8 126:860 JLINK_ReadMemU32(0xE000ED30, 0x0001 Items, ...) -- CPU_ReadMem(4 bytes @ 0xE000ED30) - Data: 02 00 00 00  returns 0x01 (0001ms, 0837ms total)
T49C8 126:861 JLINK_ReadMemU32(0xE0001028, 0x0001 Items, ...) -- CPU_ReadMem(4 bytes @ 0xE0001028) - Data: 00 00 00 00  returns 0x01 (0001ms, 0838ms total)
T49C8 126:862 JLINK_ReadMemU32(0xE0001038, 0x0001 Items, ...) -- CPU_ReadMem(4 bytes @ 0xE0001038) - Data: 00 02 00 00  returns 0x01 (0001ms, 0839ms total)
T49C8 126:863 JLINK_ReadMemU32(0xE0001048, 0x0001 Items, ...) -- CPU_ReadMem(4 bytes @ 0xE0001048) - Data: 00 00 00 00  returns 0x01 (0001ms, 0840ms total)
T49C8 126:864 JLINK_ReadMemU32(0xE0001058, 0x0001 Items, ...) -- CPU_ReadMem(4 bytes @ 0xE0001058) - Data: 00 00 00 00  returns 0x01 (0001ms, 0841ms total)
T49C8 126:865 JLINK_ReadReg(R0)  returns 0x40010C00 (0000ms, 0841ms total)
T49C8 126:865 JLINK_ReadReg(R1)  returns 0x00000010 (0000ms, 0841ms total)
T49C8 126:865 JLINK_ReadReg(R2)  returns 0x00009263 (0000ms, 0841ms total)
T49C8 126:865 JLINK_ReadReg(R3)  returns 0x00000001 (0000ms, 0841ms total)
T49C8 126:865 JLINK_ReadReg(R4)  returns 0x0000006D (0000ms, 0841ms total)
T49C8 126:865 JLINK_ReadReg(R5)  returns 0x000249F0 (0000ms, 0841ms total)
T49C8 126:865 JLINK_ReadReg(R6)  returns 0x00000320 (0000ms, 0841ms total)
T49C8 126:865 JLINK_ReadReg(R7)  returns 0x00000001 (0000ms, 0841ms total)
T49C8 126:865 JLINK_ReadReg(R8)  returns 0x00024734 (0000ms, 0841ms total)
T49C8 126:865 JLINK_ReadReg(R9)  returns 0x00000000 (0000ms, 0841ms total)
T49C8 126:865 JLINK_ReadReg(R10)  returns 0x000000B4 (0000ms, 0841ms total)
T49C8 126:865 JLINK_ReadReg(R11)  returns 0x00000001 (0000ms, 0841ms total)
T49C8 126:865 JLINK_ReadReg(R12)  returns 0x00000168 (0000ms, 0841ms total)
T49C8 126:865 JLINK_ReadReg(R13 (SP))  returns 0x20001408 (0000ms, 0841ms total)
T49C8 126:865 JLINK_ReadReg(R14)  returns 0x08000F4D (0000ms, 0841ms total)
T49C8 126:865 JLINK_ReadReg(R15 (PC))  returns 0x08000F66 (0000ms, 0841ms total)
T49C8 126:865 JLINK_ReadReg(XPSR)  returns 0x81000000 (0000ms, 0841ms total)
T49C8 126:865 JLINK_ReadReg(MSP)  returns 0x20001408 (0000ms, 0841ms total)
T49C8 126:865 JLINK_ReadReg(PSP)  returns 0x20001000 (0000ms, 0841ms total)
T49C8 126:865 JLINK_ReadReg(CFBP)  returns 0x00000000 (0000ms, 0841ms total)
T2184 126:866 JLINK_ReadMem (0x2000142C, 0x0004 Bytes, ...) -- CPU_ReadMem(64 bytes @ 0x20001400) -- Updating C cache (64 bytes @ 0x20001400) -- Read from C cache (4 bytes @ 0x2000142C) - Data: 0F 30 00 08  returns 0x00 (0001ms, 0842ms total)
T2184 126:867 JLINK_ReadMem (0x2000140C, 0x0004 Bytes, ...) -- Read from C cache (4 bytes @ 0x2000140C) - Data: 30 39 00 08  returns 0x00 (0000ms, 0842ms total)
T2184 126:867 JLINK_ReadMem (0x20001410, 0x0004 Bytes, ...) -- Read from C cache (4 bytes @ 0x20001410) - Data: 30 39 00 08  returns 0x00 (0000ms, 0842ms total)
T2184 126:867 JLINK_ReadMem (0x20001414, 0x0004 Bytes, ...) -- Read from C cache (4 bytes @ 0x20001414) - Data: 00 00 00 00  returns 0x00 (0000ms, 0842ms total)
T2184 126:867 JLINK_ReadMem (0x20001418, 0x0004 Bytes, ...) -- Read from C cache (4 bytes @ 0x20001418) - Data: 00 00 00 00  returns 0x00 (0000ms, 0842ms total)
T2184 126:867 JLINK_ReadMem (0x2000141C, 0x0004 Bytes, ...) -- Read from C cache (4 bytes @ 0x2000141C) - Data: 00 00 00 00  returns 0x00 (0000ms, 0842ms total)
T2184 126:867 JLINK_ReadMem (0x20001420, 0x0004 Bytes, ...) -- Read from C cache (4 bytes @ 0x20001420) - Data: 60 01 00 20  returns 0x00 (0000ms, 0842ms total)
T2184 126:867 JLINK_ReadMem (0x20001424, 0x0004 Bytes, ...) -- Read from C cache (4 bytes @ 0x20001424) - Data: 00 00 00 00  returns 0x00 (0001ms, 0843ms total)
T2184 126:868 JLINK_ReadMem (0x20001428, 0x0004 Bytes, ...) -- Read from C cache (4 bytes @ 0x20001428) - Data: 00 00 00 00  returns 0x00 (0000ms, 0843ms total)
T2184 126:868 JLINK_ReadMem (0x20001434, 0x0004 Bytes, ...) -- Read from C cache (4 bytes @ 0x20001434) - Data: 59 2F 00 08  returns 0x00 (0000ms, 0843ms total)
T2184 126:868 JLINK_ReadMem (0x20001430, 0x0004 Bytes, ...) -- Read from C cache (4 bytes @ 0x20001430) - Data: 30 39 00 08  returns 0x00 (0000ms, 0843ms total)
T2184 126:868 JLINK_ReadMem (0x20000314, 0x0004 Bytes, ...) -- CPU_ReadMem(64 bytes @ 0x20000300) -- Updating C cache (64 bytes @ 0x20000300) -- Read from C cache (4 bytes @ 0x20000314) - Data: 01 00 00 00  returns 0x00 (0001ms, 0844ms total)
T2184 126:869 JLINK_ReadMem (0x20000318, 0x0004 Bytes, ...) -- Read from C cache (4 bytes @ 0x20000318) - Data: 02 00 00 00  returns 0x00 (0000ms, 0844ms total)
T2184 126:869 JLINK_ReadMem (0x20001408, 0x0001 Bytes, ...) -- Read from C cache (1 bytes @ 0x20001408) - Data: 00  returns 0x00 (0000ms, 0844ms total)
T2184 126:870 JLINK_ReadMem (0x200007FE, 0x0002 Bytes, ...) -- CPU_ReadMem(64 bytes @ 0x200007C0) -- Updating C cache (64 bytes @ 0x200007C0) -- Read from C cache (2 bytes @ 0x200007FE) - Data: FF 7E  returns 0x00 (0001ms, 0845ms total)
T2184 126:871 JLINK_ReadMem (0x20000800, 0x001E Bytes, ...) -- CPU_ReadMem(64 bytes @ 0x20000800) -- Updating C cache (64 bytes @ 0x20000800) -- Read from C cache (30 bytes @ 0x20000800) - Data: 00 00 00 00 00 00 00 00 00 00 00 00 00 00 00 00 ...  returns 0x00 (0001ms, 0846ms total)
T49C8 127:141 JLINK_Step() -- CPU_ReadMem(64 bytes @ 0x08000F40) -- Updating C cache (64 bytes @ 0x08000F40) -- Read from C cache (2 bytes @ 0x08000F66) -- CPU_ReadMem(4 bytes @ 0xE0001004) -- Read from C cache (2 bytes @ 0x08000F68) -- Simulated  returns 0x00 (0002ms, 0848ms total)
T49C8 127:143 JLINK_ReadReg(R15 (PC))  returns 0x08000F6A (0000ms, 0848ms total)
T49C8 127:143 JLINK_ReadReg(XPSR)  returns 0x81000000 (0000ms, 0848ms total)
T49C8 127:143 JLINK_SetBPEx(Addr = 0x08002BFC, Type = 0xFFFFFFF2)  returns 0x00000011 (0000ms, 0848ms total)
T49C8 127:143 JLINK_SetBPEx(Addr = 0x08000F66, Type = 0xFFFFFFF2)  returns 0x00000012 (0000ms, 0848ms total)
T49C8 127:143 JLINK_SetBPEx(Addr = 0x08000FBC, Type = 0xFFFFFFF2)  returns 0x00000013 (0000ms, 0848ms total)
T49C8 127:143 JLINK_Go() -- CPU_WriteMem(4 bytes @ 0xE0002000) -- CPU_WriteMem(4 bytes @ 0xE0002000) -- CPU_WriteMem(4 bytes @ 0xE0002000) -- CPU_WriteMem(4 bytes @ 0xE0001004) (0005ms, 0853ms total)
T49C8 127:249 JLINK_IsHalted()  returns TRUE (0005ms, 0858ms total)
T49C8 127:254 JLINK_Halt()  returns 0x00 (0000ms, 0853ms total)
T49C8 127:254 JLINK_IsHalted()  returns TRUE (0000ms, 0853ms total)
T49C8 127:254 JLINK_IsHalted()  returns TRUE (0000ms, 0853ms total)
T49C8 127:254 JLINK_IsHalted()  returns TRUE (0000ms, 0853ms total)
T49C8 127:254 JLINK_ReadReg(R15 (PC))  returns 0x08000F66 (0000ms, 0853ms total)
T49C8 127:254 JLINK_ReadReg(XPSR)  returns 0x81000000 (0000ms, 0853ms total)
T49C8 127:254 JLINK_ClrBPEx(BPHandle = 0x00000011)  returns 0x00 (0000ms, 0853ms total)
T49C8 127:254 JLINK_ClrBPEx(BPHandle = 0x00000012)  returns 0x00 (0000ms, 0853ms total)
T49C8 127:254 JLINK_ClrBPEx(BPHandle = 0x00000013)  returns 0x00 (0000ms, 0853ms total)
T49C8 127:254 JLINK_ReadMemU32(0xE000ED30, 0x0001 Items, ...) -- CPU_ReadMem(4 bytes @ 0xE000ED30) - Data: 02 00 00 00  returns 0x01 (0001ms, 0854ms total)
T49C8 127:255 JLINK_ReadMemU32(0xE0001028, 0x0001 Items, ...) -- CPU_ReadMem(4 bytes @ 0xE0001028) - Data: 00 00 00 00  returns 0x01 (0001ms, 0855ms total)
T49C8 127:256 JLINK_ReadMemU32(0xE0001038, 0x0001 Items, ...) -- CPU_ReadMem(4 bytes @ 0xE0001038) - Data: 00 02 00 00  returns 0x01 (0001ms, 0856ms total)
T49C8 127:257 JLINK_ReadMemU32(0xE0001048, 0x0001 Items, ...) -- CPU_ReadMem(4 bytes @ 0xE0001048) - Data: 00 00 00 00  returns 0x01 (0001ms, 0857ms total)
T49C8 127:258 JLINK_ReadMemU32(0xE0001058, 0x0001 Items, ...) -- CPU_ReadMem(4 bytes @ 0xE0001058) - Data: 00 00 00 00  returns 0x01 (0001ms, 0858ms total)
T49C8 127:259 JLINK_ReadReg(R0)  returns 0x40010C00 (0000ms, 0858ms total)
T49C8 127:259 JLINK_ReadReg(R1)  returns 0x00000010 (0000ms, 0858ms total)
T49C8 127:259 JLINK_ReadReg(R2)  returns 0x00009263 (0000ms, 0858ms total)
T49C8 127:259 JLINK_ReadReg(R3)  returns 0x00000001 (0000ms, 0858ms total)
T49C8 127:259 JLINK_ReadReg(R4)  returns 0x0000006F (0000ms, 0858ms total)
T49C8 127:259 JLINK_ReadReg(R5)  returns 0x000249F0 (0000ms, 0858ms total)
T49C8 127:259 JLINK_ReadReg(R6)  returns 0x00000320 (0000ms, 0858ms total)
T49C8 127:259 JLINK_ReadReg(R7)  returns 0x00000001 (0000ms, 0858ms total)
T49C8 127:259 JLINK_ReadReg(R8)  returns 0x00024734 (0000ms, 0858ms total)
T49C8 127:259 JLINK_ReadReg(R9)  returns 0x00000000 (0000ms, 0858ms total)
T49C8 127:259 JLINK_ReadReg(R10)  returns 0x000000B4 (0000ms, 0858ms total)
T49C8 127:259 JLINK_ReadReg(R11)  returns 0x00000001 (0000ms, 0858ms total)
T49C8 127:259 JLINK_ReadReg(R12)  returns 0x00000168 (0001ms, 0859ms total)
T49C8 127:260 JLINK_ReadReg(R13 (SP))  returns 0x20001408 (0000ms, 0859ms total)
T49C8 127:260 JLINK_ReadReg(R14)  returns 0x08000F4D (0000ms, 0859ms total)
T49C8 127:260 JLINK_ReadReg(R15 (PC))  returns 0x08000F66 (0000ms, 0859ms total)
T49C8 127:260 JLINK_ReadReg(XPSR)  returns 0x81000000 (0000ms, 0859ms total)
T49C8 127:260 JLINK_ReadReg(MSP)  returns 0x20001408 (0000ms, 0859ms total)
T49C8 127:260 JLINK_ReadReg(PSP)  returns 0x20001000 (0000ms, 0859ms total)
T49C8 127:260 JLINK_ReadReg(CFBP)  returns 0x00000000 (0000ms, 0859ms total)
